T1C64 000:007.605   SEGGER J-Link V6.86 Log File
T1C64 000:007.790   DLL Compiled: Sep 24 2020 17:31:31
T1C64 000:007.796   Logging started @ 2024-04-13 15:31
T1C64 000:007.803 - 7.806ms
T1C64 000:007.812 JLINK_SetWarnOutHandler(...)
T1C64 000:007.819 - 0.010ms
T1C64 000:007.826 JLINK_OpenEx(...)
T1C64 000:009.335   Firmware: J-Link V9 compiled Dec 13 2019 11:14:50
T1C64 000:009.517   Decompressing FW timestamp took 150 us
T1C64 000:015.991   Hardware: V9.60
T1C64 000:016.017   S/N: 69603068
T1C64 000:016.028   OEM: SEGGER
T1C64 000:016.037   Feature(s): GDB, RDI, FlashBP, FlashDL, JFlash
T1C64 000:017.350   TELNET listener socket opened on port 19021
T1C64 000:017.439   WEBSRV Starting webserver
T1C64 000:017.545   WEBSRV Webserver running on local port 19080
T1C64 000:017.558 - 9.735ms returns "O.K."
T1C64 000:017.573 JLINK_GetEmuCaps()
T1C64 000:017.580 - 0.010ms returns 0xB9FF7BBF
T1C64 000:017.590 JLINK_TIF_GetAvailable(...)
T1C64 000:017.776 - 0.193ms
T1C64 000:017.790 JLINK_SetErrorOutHandler(...)
T1C64 000:017.797 - 0.010ms
T1C64 000:017.811 JLINK_ExecCommand("ProjectFile = "G:\0.SZ_HanNeng\CMS_BAT139_INV_V0301_20230919(2KW)\CMS_BAT139_INV_V0301_20230919(2KW)\keil\JLinkSettings.ini"", ...). 
T1C64 000:038.061   Device "CORTEX-M0+" selected.
T1C64 000:038.413 - 20.610ms returns 0x00
T1C64 000:040.307 JLINK_ExecCommand("Device = BAT32G139GK48FA", ...). 
T1C64 000:042.183   Device "CORTEX-M0+" selected.
T1C64 000:042.480 - 2.164ms returns 0x00
T1C64 000:042.499 JLINK_GetHardwareVersion()
T1C64 000:042.506 - 0.010ms returns 96000
T1C64 000:042.517 JLINK_GetDLLVersion()
T1C64 000:042.523 - 0.009ms returns 68600
T1C64 000:042.531 JLINK_GetOEMString(...)
T1C64 000:042.538 JLINK_GetFirmwareString(...)
T1C64 000:042.545 - 0.009ms
T1C64 000:048.720 JLINK_GetDLLVersion()
T1C64 000:048.748 - 0.031ms returns 68600
T1C64 000:048.756 JLINK_GetCompileDateTime()
T1C64 000:048.762 - 0.009ms
T1C64 000:050.386 JLINK_GetFirmwareString(...)
T1C64 000:050.403 - 0.019ms
T1C64 000:053.996 JLINK_GetHardwareVersion()
T1C64 000:054.014 - 0.021ms returns 96000
T1C64 000:055.607 JLINK_GetSN()
T1C64 000:055.624 - 0.020ms returns 69603068
T1C64 000:057.102 JLINK_GetOEMString(...)
T1C64 000:060.052 JLINK_TIF_Select(JLINKARM_TIF_SWD)
T1C64 000:060.913 - 0.872ms returns 0x00
T1C64 000:060.932 JLINK_HasError()
T1C64 000:060.946 JLINK_SetSpeed(10000)
T1C64 000:061.107 - 0.172ms
T1C64 000:061.125 JLINK_GetId()
T1C64 000:063.911   Found SW-DP with ID 0x0BC11477
T1C64 000:066.317   Old FW that does not support reading DPIDR via DAP jobs
T1C64 000:070.459   Unknown DP version. Assuming DPv0
T1C64 000:072.160   Scanning AP map to find all available APs
T1C64 000:074.927   AP[1]: Stopped AP scan as end of AP map has been reached
T1C64 000:076.414   AP[0]: AHB-AP (IDR: 0x04770031)
T1C64 000:081.284   Iterating through AP map to find AHB-AP to use
T1C64 000:086.227   AP[0]: Core found
T1C64 000:087.859   AP[0]: AHB-AP ROM base: 0xE00FF000
T1C64 000:090.012   CPUID register: 0x410CC601. Implementer code: 0x41 (ARM)
T1C64 000:091.890   Found Cortex-M0 r0p1, Little endian.
T1C64 000:193.469   -- Max. mem block: 0x00010BD0
T1C64 000:193.601   CPU_ReadMem(4 bytes @ 0xE000EDF0)
T1C64 000:194.434   CPU_WriteMem(4 bytes @ 0xE000EDF0)
T1C64 000:195.016   CPU_ReadMem(4 bytes @ 0xE0002000)
T1C64 000:204.396   FPUnit: 4 code (BP) slots and 0 literal slots
T1C64 000:204.494   CPU_ReadMem(4 bytes @ 0xE000EDFC)
T1C64 000:205.083   CPU_WriteMem(4 bytes @ 0xE000EDFC)
T1C64 000:205.593   CPU_ReadMem(4 bytes @ 0xE0001000)
T1C64 000:206.053   CPU_WriteMem(4 bytes @ 0xE0001000)
T1C64 000:212.973   CoreSight components:
T1C64 000:214.730   ROMTbl[0] @ E00FF000
T1C64 000:214.754   CPU_ReadMem(64 bytes @ 0xE00FF000)
T1C64 000:215.702   CPU_ReadMem(32 bytes @ 0xE000EFE0)
T1C64 000:218.691   ROMTbl[0][0]: E000E000, CID: B105E00D, PID: 000BB008 SCS
T1C64 000:218.726   CPU_ReadMem(32 bytes @ 0xE0001FE0)
T1C64 000:221.651   ROMTbl[0][1]: E0001000, CID: B105E00D, PID: 000BB00A DWT
T1C64 000:221.687   CPU_ReadMem(32 bytes @ 0xE0002FE0)
T1C64 000:224.065   ROMTbl[0][2]: E0002000, CID: B105E00D, PID: 000BB00B FPB
T1C64 000:224.326 - 163.213ms returns 0x0BC11477
T1C64 000:224.373 JLINK_GetDLLVersion()
T1C64 000:224.382 - 0.015ms returns 68600
T1C64 000:224.396 JLINK_CORE_GetFound()
T1C64 000:224.403 - 0.011ms returns 0x60000FF
T1C64 000:224.450 JLINK_GetDebugInfo(0x100 = JLINKARM_ROM_TABLE_ADDR_INDEX)
T1C64 000:224.460   Value=0xE00FF000
T1C64 000:224.470 - 0.022ms returns 0
T1C64 000:227.381 JLINK_GetDebugInfo(0x100 = JLINKARM_ROM_TABLE_ADDR_INDEX)
T1C64 000:227.397   Value=0xE00FF000
T1C64 000:227.406 - 0.028ms returns 0
T1C64 000:227.414 JLINK_GetDebugInfo(0x101 = JLINKARM_DEBUG_INFO_ETM_ADDR_INDEX)
T1C64 000:227.420   Value=0x00000000
T1C64 000:227.429 - 0.018ms returns 0
T1C64 000:227.439 JLINK_ReadMemEx(0xE0041FF0, 0x10 Bytes, Flags = 0x02000004)
T1C64 000:227.461   CPU_ReadMem(16 bytes @ 0xE0041FF0)
T1C64 000:227.865   Data:  00 00 00 00 00 00 00 00 00 00 00 00 00 00 00 00
T1C64 000:227.880 - 0.444ms returns 16 (0x10)
T1C64 000:227.890 JLINK_GetDebugInfo(0x102 = JLINKARM_DEBUG_INFO_MTB_ADDR_INDEX)
T1C64 000:227.896   Value=0x00000000
T1C64 000:227.905 - 0.018ms returns 0
T1C64 000:227.912 JLINK_GetDebugInfo(0x103 = JLINKARM_DEBUG_INFO_TPIU_ADDR_INDEX)
T1C64 000:227.918   Value=0x00000000
T1C64 000:227.927 - 0.017ms returns 0
T1C64 000:227.933 JLINK_ReadMemEx(0xE0040FF0, 0x10 Bytes, Flags = 0x02000004)
T1C64 000:227.951   CPU_ReadMem(16 bytes @ 0xE0040FF0)
T1C64 000:228.334   Data:  00 00 00 00 00 00 00 00 00 00 00 00 00 00 00 00
T1C64 000:228.350 - 0.419ms returns 16 (0x10)
T1C64 000:228.358 JLINK_GetDebugInfo(0x104 = JLINKARM_DEBUG_INFO_ITM_ADDR_INDEX)
T1C64 000:228.365   Value=0xE0000000
T1C64 000:228.374 - 0.019ms returns 0
T1C64 000:228.381 JLINK_GetDebugInfo(0x105 = JLINKARM_DEBUG_INFO_DWT_ADDR_INDEX)
T1C64 000:228.388   Value=0xE0001000
T1C64 000:228.397 - 0.018ms returns 0
T1C64 000:228.404 JLINK_GetDebugInfo(0x106 = JLINKARM_DEBUG_INFO_FPB_ADDR_INDEX)
T1C64 000:228.410   Value=0xE0002000
T1C64 000:228.419 - 0.018ms returns 0
T1C64 000:228.426 JLINK_GetDebugInfo(0x107 = JLINKARM_DEBUG_INFO_NVIC_ADDR_INDEX)
T1C64 000:228.432   Value=0xE000E000
T1C64 000:228.441 - 0.018ms returns 0
T1C64 000:228.448 JLINK_GetDebugInfo(0x10C = JLINKARM_DEBUG_INFO_DBG_ADDR_INDEX)
T1C64 000:228.454   Value=0xE000EDF0
T1C64 000:228.463 - 0.018ms returns 0
T1C64 000:228.470 JLINK_GetDebugInfo(0x01 = Unknown)
T1C64 000:228.476   Value=0x00000000
T1C64 000:228.485 - 0.018ms returns 0
T1C64 000:228.492 JLINK_ReadMemU32(0xE000ED00, 0x1 Items)
T1C64 000:228.523   CPU_ReadMem(4 bytes @ 0xE000ED00)
T1C64 000:228.866   Data:  01 C6 0C 41
T1C64 000:228.898   Debug reg: CPUID
T1C64 000:228.907 - 0.418ms returns 1 (0x1)
T1C64 000:228.916 JLINK_GetDebugInfo(0x10F = JLINKARM_DEBUG_INFO_HAS_CORTEX_M_SECURITY_EXT_INDEX)
T1C64 000:228.923   Value=0x00000000
T1C64 000:228.931 - 0.018ms returns 0
T1C64 000:228.939 JLINK_HasError()
T1C64 000:228.946 JLINK_SetResetType(JLINKARM_CM3_RESET_TYPE_NORMAL)
T1C64 000:228.955 - 0.011ms returns JLINKARM_CM3_RESET_TYPE_NORMAL
T1C64 000:228.962 JLINK_Reset()
T1C64 000:228.979   CPU is running
T1C64 000:228.990   CPU_WriteMem(4 bytes @ 0xE000EDF0)
T1C64 000:229.321   CPU is running
T1C64 000:229.338   CPU_WriteMem(4 bytes @ 0xE000EDFC)
T1C64 000:231.594   Reset: Halt core after reset via DEMCR.VC_CORERESET.
T1C64 000:233.676   Reset: Reset device via AIRCR.SYSRESETREQ.
T1C64 000:233.694   CPU is running
T1C64 000:233.705   CPU_WriteMem(4 bytes @ 0xE000ED0C)
T1C64 000:286.905   CPU_ReadMem(4 bytes @ 0xE000EDF0)
T1C64 000:287.242   CPU_ReadMem(4 bytes @ 0xE000EDF0)
T1C64 000:287.563   CPU is running
T1C64 000:287.580   CPU_WriteMem(4 bytes @ 0xE000EDF0)
T1C64 000:287.910   CPU is running
T1C64 000:287.928   CPU_WriteMem(4 bytes @ 0xE000EDFC)
T1C64 000:294.078   CPU_ReadMem(4 bytes @ 0xE000EDF0)
T1C64 000:296.889   CPU_WriteMem(4 bytes @ 0xE0002000)
T1C64 000:297.294   CPU_ReadMem(4 bytes @ 0xE000EDFC)
T1C64 000:297.682   CPU_ReadMem(4 bytes @ 0xE0001000)
T1C64 000:297.970   CPU_WriteMem(4 bytes @ 0xE0001000)
T1C64 000:298.339 - 69.390ms
T1C64 000:298.366 JLINK_Halt()
T1C64 000:298.374 - 0.011ms returns 0x00
T1C64 000:298.382 JLINK_ReadMemU32(0xE000EDF0, 0x1 Items)
T1C64 000:298.396   CPU_ReadMem(4 bytes @ 0xE000EDF0)
T1C64 000:298.796   Data:  03 00 03 00
T1C64 000:298.815   Debug reg: DHCSR
T1C64 000:298.825 - 0.446ms returns 1 (0x1)
T1C64 000:298.840 JLINK_WriteU32_64(0xE000EDF0, 0xA05F0003)
T1C64 000:298.850   Debug reg: DHCSR
T1C64 000:298.870   CPU_WriteMem(4 bytes @ 0xE000EDF0)
T1C64 000:299.376 - 0.548ms returns 0 (0x00000000)
T1C64 000:299.398 JLINK_WriteU32_64(0xE000EDFC, 0x01000000)
T1C64 000:299.406   Debug reg: DEMCR
T1C64 000:299.422   CPU_WriteMem(4 bytes @ 0xE000EDFC)
T1C64 000:299.767 - 0.388ms returns 0 (0x00000000)
T1C64 000:307.995 JLINK_GetHWStatus(...)
T1C64 000:308.359 - 0.374ms returns 0
T1C64 000:314.317 JLINK_GetNumBPUnits(Type = 0xFFFFFF00)
T1C64 000:314.356 - 0.042ms returns 0x04
T1C64 000:314.364 JLINK_GetNumBPUnits(Type = 0xF0)
T1C64 000:314.370 - 0.009ms returns 0x2000
T1C64 000:314.377 JLINK_GetNumWPUnits()
T1C64 000:314.383 - 0.009ms returns 2
T1C64 000:319.998 JLINK_GetSpeed()
T1C64 000:320.016 - 0.020ms returns 6000
T1C64 000:323.012 JLINK_ReadMemU32(0xE000E004, 0x1 Items)
T1C64 000:323.050   CPU_ReadMem(4 bytes @ 0xE000E004)
T1C64 000:323.476   Data:  00 00 00 00
T1C64 000:323.492 - 0.482ms returns 1 (0x1)
T1C64 000:323.503 JLINK_Halt()
T1C64 000:323.510 - 0.009ms returns 0x00
T1C64 000:323.517 JLINK_IsHalted()
T1C64 000:323.523 - 0.009ms returns TRUE
T1C64 000:326.301 JLINK_WriteMem(0x20000200, 0x11C Bytes, ...)
T1C64 000:326.313   Data:  00 BE 0A E0 0D 78 2D 06 68 40 08 24 40 00 00 D3 ...
T1C64 000:326.544   CPU_WriteMem(284 bytes @ 0x20000200)
T1C64 000:328.193 - 1.901ms returns 0x11C
T1C64 000:328.244 JLINK_HasError()
T1C64 000:328.254 JLINK_WriteReg(R0, 0x00000000)
T1C64 000:328.263 - 0.012ms returns 0
T1C64 000:328.270 JLINK_WriteReg(R1, 0x00B71B00)
T1C64 000:328.278 - 0.010ms returns 0
T1C64 000:328.285 JLINK_WriteReg(R2, 0x00000001)
T1C64 000:328.292 - 0.009ms returns 0
T1C64 000:328.298 JLINK_WriteReg(R3, 0x00000000)
T1C64 000:328.305 - 0.009ms returns 0
T1C64 000:328.311 JLINK_WriteReg(R4, 0x00000000)
T1C64 000:328.318 - 0.009ms returns 0
T1C64 000:328.325 JLINK_WriteReg(R5, 0x00000000)
T1C64 000:328.331 - 0.009ms returns 0
T1C64 000:328.338 JLINK_WriteReg(R6, 0x00000000)
T1C64 000:328.345 - 0.010ms returns 0
T1C64 000:328.351 JLINK_WriteReg(R7, 0x00000000)
T1C64 000:328.358 - 0.009ms returns 0
T1C64 000:328.364 JLINK_WriteReg(R8, 0x00000000)
T1C64 000:328.374 - 0.013ms returns 0
T1C64 000:328.381 JLINK_WriteReg(R9, 0x20000318)
T1C64 000:328.387 - 0.009ms returns 0
T1C64 000:328.394 JLINK_WriteReg(R10, 0x00000000)
T1C64 000:328.401 - 0.009ms returns 0
T1C64 000:328.407 JLINK_WriteReg(R11, 0x00000000)
T1C64 000:328.414 - 0.009ms returns 0
T1C64 000:328.420 JLINK_WriteReg(R12, 0x00000000)
T1C64 000:328.443 - 0.027ms returns 0
T1C64 000:328.472 JLINK_WriteReg(R13 (SP), 0x20001200)
T1C64 000:328.497 - 0.028ms returns 0
T1C64 000:328.504 JLINK_WriteReg(R14, 0x20000201)
T1C64 000:328.528 - 0.027ms returns 0
T1C64 000:328.536 JLINK_WriteReg(R15 (PC), 0x20000238)
T1C64 000:328.546 - 0.013ms returns 0
T1C64 000:328.554 JLINK_WriteReg(XPSR, 0x01000000)
T1C64 000:328.562 - 0.011ms returns 0
T1C64 000:328.570 JLINK_WriteReg(MSP, 0x20001200)
T1C64 000:328.594 - 0.027ms returns 0
T1C64 000:328.601 JLINK_WriteReg(PSP, 0x20001200)
T1C64 000:328.608 - 0.010ms returns 0
T1C64 000:328.616 JLINK_WriteReg(CFBP, 0x00000000)
T1C64 000:328.623 - 0.010ms returns 0
T1C64 000:328.630 JLINK_SetBPEx(Addr = 0x20000200, Type = 0xFFFFFFF2)
T1C64 000:328.641   CPU_ReadMem(4 bytes @ 0x20000200)
T1C64 000:328.959   CPU_WriteMem(4 bytes @ 0x20000200)
T1C64 000:329.432   CPU_ReadMem(4 bytes @ 0x20000200)
T1C64 000:329.821   CPU_WriteMem(4 bytes @ 0x20000200)
T1C64 000:330.174   CPU_ReadMem(2 bytes @ 0x20000200)
T1C64 000:330.518 - 1.897ms returns 0x00000001
T1C64 000:330.534 JLINK_Go()
T1C64 000:330.565   CPU_WriteMem(2 bytes @ 0x20000200)
T1C64 000:330.885   CPU_ReadMem(4 bytes @ 0xE0001000)
T1C64 000:331.093   CPU_WriteMem(4 bytes @ 0xE0001000)
T1C64 000:331.109   CPU_WriteMem(4 bytes @ 0xE0002008)
T1C64 000:331.140   CPU_WriteMem(4 bytes @ 0xE000200C)
T1C64 000:331.151   CPU_WriteMem(4 bytes @ 0xE0002010)
T1C64 000:331.162   CPU_WriteMem(4 bytes @ 0xE0002014)
T1C64 000:332.145   CPU_WriteMem(4 bytes @ 0xE0001004)
T1C64 000:334.500 - 3.978ms
T1C64 000:334.520 JLINK_IsHalted()
T1C64 000:336.865   CPU_ReadMem(2 bytes @ 0x20000200)
T1C64 000:337.159 - 2.647ms returns TRUE
T1C64 000:337.174 JLINK_ReadReg(R15 (PC))
T1C64 000:337.183 - 0.012ms returns 0x20000200
T1C64 000:337.190 JLINK_ClrBPEx(BPHandle = 0x00000001)
T1C64 000:337.197 - 0.010ms returns 0x00
T1C64 000:337.205 JLINK_ReadReg(R0)
T1C64 000:337.211 - 0.009ms returns 0x00000000
T1C64 000:337.901 JLINK_HasError()
T1C64 000:337.916 JLINK_WriteReg(R0, 0x00000000)
T1C64 000:337.925 - 0.012ms returns 0
T1C64 000:337.932 JLINK_WriteReg(R1, 0x00B71B00)
T1C64 000:337.939 - 0.009ms returns 0
T1C64 000:337.946 JLINK_WriteReg(R2, 0x00000001)
T1C64 000:337.952 - 0.009ms returns 0
T1C64 000:337.959 JLINK_WriteReg(R3, 0x00000000)
T1C64 000:337.966 - 0.009ms returns 0
T1C64 000:337.972 JLINK_WriteReg(R4, 0x00000000)
T1C64 000:337.979 - 0.009ms returns 0
T1C64 000:337.986 JLINK_WriteReg(R5, 0x00000000)
T1C64 000:337.992 - 0.009ms returns 0
T1C64 000:337.999 JLINK_WriteReg(R6, 0x00000000)
T1C64 000:338.005 - 0.009ms returns 0
T1C64 000:338.012 JLINK_WriteReg(R7, 0x00000000)
T1C64 000:338.019 - 0.009ms returns 0
T1C64 000:338.025 JLINK_WriteReg(R8, 0x00000000)
T1C64 000:338.045 - 0.023ms returns 0
T1C64 000:338.053 JLINK_WriteReg(R9, 0x20000318)
T1C64 000:338.060 - 0.010ms returns 0
T1C64 000:338.067 JLINK_WriteReg(R10, 0x00000000)
T1C64 000:338.074 - 0.010ms returns 0
T1C64 000:338.081 JLINK_WriteReg(R11, 0x00000000)
T1C64 000:338.088 - 0.010ms returns 0
T1C64 000:338.096 JLINK_WriteReg(R12, 0x00000000)
T1C64 000:338.103 - 0.010ms returns 0
T1C64 000:338.110 JLINK_WriteReg(R13 (SP), 0x20001200)
T1C64 000:338.117 - 0.023ms returns 0
T1C64 000:338.140 JLINK_WriteReg(R14, 0x20000201)
T1C64 000:338.146 - 0.009ms returns 0
T1C64 000:338.153 JLINK_WriteReg(R15 (PC), 0x20000252)
T1C64 000:338.160 - 0.009ms returns 0
T1C64 000:338.166 JLINK_WriteReg(XPSR, 0x01000000)
T1C64 000:338.173 - 0.009ms returns 0
T1C64 000:338.180 JLINK_WriteReg(MSP, 0x20001200)
T1C64 000:338.186 - 0.009ms returns 0
T1C64 000:338.193 JLINK_WriteReg(PSP, 0x20001200)
T1C64 000:338.200 - 0.009ms returns 0
T1C64 000:338.206 JLINK_WriteReg(CFBP, 0x00000000)
T1C64 000:338.213 - 0.009ms returns 0
T1C64 000:338.220 JLINK_SetBPEx(Addr = 0x20000200, Type = 0xFFFFFFF2)
T1C64 000:338.227 - 0.010ms returns 0x00000002
T1C64 000:338.234 JLINK_Go()
T1C64 000:338.245   CPU_ReadMem(4 bytes @ 0xE0001000)
T1C64 000:338.552   CPU_WriteMem(4 bytes @ 0xE0001000)
T1C64 000:341.010 - 2.786ms
T1C64 000:341.026 JLINK_IsHalted()
T1C64 000:341.290 - 0.271ms returns FALSE
T1C64 000:341.304 JLINK_HasError()
T1C64 000:354.549 JLINK_IsHalted()
T1C64 000:354.885 - 0.342ms returns FALSE
T1C64 000:354.897 JLINK_HasError()
T1C64 000:356.257 JLINK_IsHalted()
T1C64 000:356.630 - 0.377ms returns FALSE
T1C64 000:356.640 JLINK_HasError()
T1C64 000:358.038 JLINK_IsHalted()
T1C64 000:358.420 - 0.386ms returns FALSE
T1C64 000:358.430 JLINK_HasError()
T1C64 000:360.030 JLINK_IsHalted()
T1C64 000:360.386 - 0.361ms returns FALSE
T1C64 000:360.397 JLINK_HasError()
T1C64 000:361.625 JLINK_IsHalted()
T1C64 000:361.974 - 0.360ms returns FALSE
T1C64 000:361.993 JLINK_HasError()
T1C64 000:363.958 JLINK_IsHalted()
T1C64 000:364.341 - 0.396ms returns FALSE
T1C64 000:364.362 JLINK_HasError()
T1C64 000:365.967 JLINK_IsHalted()
T1C64 000:366.368 - 0.419ms returns FALSE
T1C64 000:366.397 JLINK_HasError()
T1C64 000:369.576 JLINK_IsHalted()
T1C64 000:370.175 - 0.606ms returns FALSE
T1C64 000:370.187 JLINK_HasError()
T1C64 000:371.492 JLINK_IsHalted()
T1C64 000:371.884 - 0.399ms returns FALSE
T1C64 000:371.897 JLINK_HasError()
T1C64 000:373.855 JLINK_IsHalted()
T1C64 000:376.086   CPU_ReadMem(2 bytes @ 0x20000200)
T1C64 000:376.480 - 2.630ms returns TRUE
T1C64 000:376.493 JLINK_ReadReg(R15 (PC))
T1C64 000:376.502 - 0.012ms returns 0x20000200
T1C64 000:376.510 JLINK_ClrBPEx(BPHandle = 0x00000002)
T1C64 000:376.517 - 0.010ms returns 0x00
T1C64 000:376.525 JLINK_ReadReg(R0)
T1C64 000:376.532 - 0.010ms returns 0x00000000
T1C64 000:432.586 JLINK_HasError()
T1C64 000:432.615 JLINK_WriteReg(R0, 0x00000001)
T1C64 000:432.627 - 0.016ms returns 0
T1C64 000:432.636 JLINK_WriteReg(R1, 0x00B71B00)
T1C64 000:432.643 - 0.010ms returns 0
T1C64 000:432.651 JLINK_WriteReg(R2, 0x00000001)
T1C64 000:432.658 - 0.010ms returns 0
T1C64 000:432.666 JLINK_WriteReg(R3, 0x00000000)
T1C64 000:432.673 - 0.010ms returns 0
T1C64 000:432.680 JLINK_WriteReg(R4, 0x00000000)
T1C64 000:432.687 - 0.010ms returns 0
T1C64 000:432.696 JLINK_WriteReg(R5, 0x00000000)
T1C64 000:432.708 - 0.015ms returns 0
T1C64 000:432.715 JLINK_WriteReg(R6, 0x00000000)
T1C64 000:432.723 - 0.011ms returns 0
T1C64 000:432.731 JLINK_WriteReg(R7, 0x00000000)
T1C64 000:432.738 - 0.010ms returns 0
T1C64 000:432.745 JLINK_WriteReg(R8, 0x00000000)
T1C64 000:432.753 - 0.010ms returns 0
T1C64 000:432.760 JLINK_WriteReg(R9, 0x20000318)
T1C64 000:432.767 - 0.010ms returns 0
T1C64 000:432.774 JLINK_WriteReg(R10, 0x00000000)
T1C64 000:432.781 - 0.010ms returns 0
T1C64 000:432.788 JLINK_WriteReg(R11, 0x00000000)
T1C64 000:432.796 - 0.010ms returns 0
T1C64 000:432.803 JLINK_WriteReg(R12, 0x00000000)
T1C64 000:432.810 - 0.010ms returns 0
T1C64 000:432.817 JLINK_WriteReg(R13 (SP), 0x20001200)
T1C64 000:432.825 - 0.011ms returns 0
T1C64 000:432.832 JLINK_WriteReg(R14, 0x20000201)
T1C64 000:432.839 - 0.010ms returns 0
T1C64 000:432.847 JLINK_WriteReg(R15 (PC), 0x20000246)
T1C64 000:432.854 - 0.010ms returns 0
T1C64 000:432.861 JLINK_WriteReg(XPSR, 0x01000000)
T1C64 000:432.868 - 0.010ms returns 0
T1C64 000:432.875 JLINK_WriteReg(MSP, 0x20001200)
T1C64 000:432.882 - 0.010ms returns 0
T1C64 000:432.889 JLINK_WriteReg(PSP, 0x20001200)
T1C64 000:432.897 - 0.010ms returns 0
T1C64 000:432.904 JLINK_WriteReg(CFBP, 0x00000000)
T1C64 000:432.911 - 0.010ms returns 0
T1C64 000:432.918 JLINK_SetBPEx(Addr = 0x20000200, Type = 0xFFFFFFF2)
T1C64 000:432.927 - 0.012ms returns 0x00000003
T1C64 000:432.935 JLINK_Go()
T1C64 000:432.952   CPU_ReadMem(4 bytes @ 0xE0001000)
T1C64 000:433.288   CPU_WriteMem(4 bytes @ 0xE0001000)
T1C64 000:435.483 - 2.557ms
T1C64 000:435.499 JLINK_IsHalted()
T1C64 000:437.303   CPU_ReadMem(2 bytes @ 0x20000200)
T1C64 000:437.513 - 2.019ms returns TRUE
T1C64 000:437.525 JLINK_ReadReg(R15 (PC))
T1C64 000:437.533 - 0.011ms returns 0x20000200
T1C64 000:437.541 JLINK_ClrBPEx(BPHandle = 0x00000003)
T1C64 000:437.548 - 0.011ms returns 0x00
T1C64 000:437.556 JLINK_ReadReg(R0)
T1C64 000:437.563 - 0.010ms returns 0x00000000
T1C64 000:437.871 JLINK_WriteMem(0x20000200, 0x11C Bytes, ...)
T1C64 000:437.882   Data:  00 BE 0A E0 0D 78 2D 06 68 40 08 24 40 00 00 D3 ...
T1C64 000:437.896   CPU_WriteMem(284 bytes @ 0x20000200)
T1C64 000:439.567 - 1.705ms returns 0x11C
T1C64 000:439.606 JLINK_HasError()
T1C64 000:439.620 JLINK_WriteReg(R0, 0x00500200)
T1C64 000:439.629 - 0.012ms returns 0
T1C64 000:439.637 JLINK_WriteReg(R1, 0x00B71B00)
T1C64 000:439.644 - 0.010ms returns 0
T1C64 000:439.652 JLINK_WriteReg(R2, 0x00000001)
T1C64 000:439.659 - 0.010ms returns 0
T1C64 000:439.666 JLINK_WriteReg(R3, 0x00000000)
T1C64 000:439.673 - 0.010ms returns 0
T1C64 000:439.680 JLINK_WriteReg(R4, 0x00000000)
T1C64 000:439.687 - 0.010ms returns 0
T1C64 000:439.696 JLINK_WriteReg(R5, 0x00000000)
T1C64 000:439.703 - 0.010ms returns 0
T1C64 000:439.710 JLINK_WriteReg(R6, 0x00000000)
T1C64 000:439.717 - 0.010ms returns 0
T1C64 000:439.725 JLINK_WriteReg(R7, 0x00000000)
T1C64 000:439.731 - 0.010ms returns 0
T1C64 000:439.739 JLINK_WriteReg(R8, 0x00000000)
T1C64 000:439.746 - 0.010ms returns 0
T1C64 000:439.800 JLINK_WriteReg(R9, 0x20000318)
T1C64 000:439.809 - 0.013ms returns 0
T1C64 000:439.817 JLINK_WriteReg(R10, 0x00000000)
T1C64 000:439.824 - 0.010ms returns 0
T1C64 000:439.831 JLINK_WriteReg(R11, 0x00000000)
T1C64 000:439.838 - 0.010ms returns 0
T1C64 000:439.846 JLINK_WriteReg(R12, 0x00000000)
T1C64 000:439.852 - 0.010ms returns 0
T1C64 000:439.860 JLINK_WriteReg(R13 (SP), 0x20001200)
T1C64 000:439.867 - 0.010ms returns 0
T1C64 000:439.875 JLINK_WriteReg(R14, 0x20000201)
T1C64 000:439.882 - 0.010ms returns 0
T1C64 000:439.889 JLINK_WriteReg(R15 (PC), 0x20000238)
T1C64 000:439.896 - 0.010ms returns 0
T1C64 000:439.903 JLINK_WriteReg(XPSR, 0x01000000)
T1C64 000:439.910 - 0.010ms returns 0
T1C64 000:439.918 JLINK_WriteReg(MSP, 0x20001200)
T1C64 000:439.926 - 0.011ms returns 0
T1C64 000:439.934 JLINK_WriteReg(PSP, 0x20001200)
T1C64 000:439.941 - 0.010ms returns 0
T1C64 000:439.948 JLINK_WriteReg(CFBP, 0x00000000)
T1C64 000:439.955 - 0.010ms returns 0
T1C64 000:439.962 JLINK_SetBPEx(Addr = 0x20000200, Type = 0xFFFFFFF2)
T1C64 000:439.972   CPU_ReadMem(4 bytes @ 0x20000200)
T1C64 000:440.222   CPU_WriteMem(4 bytes @ 0x20000200)
T1C64 000:440.467   CPU_ReadMem(4 bytes @ 0x20000200)
T1C64 000:440.724   CPU_WriteMem(4 bytes @ 0x20000200)
T1C64 000:440.991   CPU_ReadMem(2 bytes @ 0x20000200)
T1C64 000:441.302 - 1.350ms returns 0x00000004
T1C64 000:441.319 JLINK_Go()
T1C64 000:441.330   CPU_WriteMem(2 bytes @ 0x20000200)
T1C64 000:441.594   CPU_ReadMem(4 bytes @ 0xE0001000)
T1C64 000:441.889   CPU_WriteMem(4 bytes @ 0xE0001000)
T1C64 000:443.915 - 2.608ms
T1C64 000:443.934 JLINK_IsHalted()
T1C64 000:445.925   CPU_ReadMem(2 bytes @ 0x20000200)
T1C64 000:446.231 - 2.302ms returns TRUE
T1C64 000:446.243 JLINK_ReadReg(R15 (PC))
T1C64 000:446.252 - 0.012ms returns 0x20000200
T1C64 000:446.260 JLINK_ClrBPEx(BPHandle = 0x00000004)
T1C64 000:446.267 - 0.010ms returns 0x00
T1C64 000:446.275 JLINK_ReadReg(R0)
T1C64 000:446.282 - 0.010ms returns 0x00000000
T1C64 000:446.566 JLINK_HasError()
T1C64 000:446.578 JLINK_WriteReg(R0, 0x00500200)
T1C64 000:446.587 - 0.012ms returns 0
T1C64 000:446.595 JLINK_WriteReg(R1, 0x00B71B00)
T1C64 000:446.602 - 0.010ms returns 0
T1C64 000:446.610 JLINK_WriteReg(R2, 0x00000001)
T1C64 000:446.617 - 0.010ms returns 0
T1C64 000:446.624 JLINK_WriteReg(R3, 0x00000000)
T1C64 000:446.631 - 0.010ms returns 0
T1C64 000:446.639 JLINK_WriteReg(R4, 0x00000000)
T1C64 000:446.646 - 0.010ms returns 0
T1C64 000:446.653 JLINK_WriteReg(R5, 0x00000000)
T1C64 000:446.660 - 0.010ms returns 0
T1C64 000:446.667 JLINK_WriteReg(R6, 0x00000000)
T1C64 000:446.674 - 0.010ms returns 0
T1C64 000:446.682 JLINK_WriteReg(R7, 0x00000000)
T1C64 000:446.689 - 0.010ms returns 0
T1C64 000:446.696 JLINK_WriteReg(R8, 0x00000000)
T1C64 000:446.703 - 0.010ms returns 0
T1C64 000:446.711 JLINK_WriteReg(R9, 0x20000318)
T1C64 000:446.717 - 0.010ms returns 0
T1C64 000:446.725 JLINK_WriteReg(R10, 0x00000000)
T1C64 000:446.732 - 0.010ms returns 0
T1C64 000:446.739 JLINK_WriteReg(R11, 0x00000000)
T1C64 000:446.746 - 0.010ms returns 0
T1C64 000:446.754 JLINK_WriteReg(R12, 0x00000000)
T1C64 000:446.761 - 0.010ms returns 0
T1C64 000:446.768 JLINK_WriteReg(R13 (SP), 0x20001200)
T1C64 000:446.775 - 0.010ms returns 0
T1C64 000:446.783 JLINK_WriteReg(R14, 0x20000201)
T1C64 000:446.790 - 0.010ms returns 0
T1C64 000:446.797 JLINK_WriteReg(R15 (PC), 0x20000252)
T1C64 000:446.804 - 0.010ms returns 0
T1C64 000:446.811 JLINK_WriteReg(XPSR, 0x01000000)
T1C64 000:446.818 - 0.010ms returns 0
T1C64 000:446.826 JLINK_WriteReg(MSP, 0x20001200)
T1C64 000:446.833 - 0.010ms returns 0
T1C64 000:446.840 JLINK_WriteReg(PSP, 0x20001200)
T1C64 000:446.847 - 0.010ms returns 0
T1C64 000:446.854 JLINK_WriteReg(CFBP, 0x00000000)
T1C64 000:446.862 - 0.023ms returns 0
T1C64 000:446.883 JLINK_SetBPEx(Addr = 0x20000200, Type = 0xFFFFFFF2)
T1C64 000:446.891 - 0.011ms returns 0x00000005
T1C64 000:446.898 JLINK_Go()
T1C64 000:446.910   CPU_ReadMem(4 bytes @ 0xE0001000)
T1C64 000:447.234   CPU_WriteMem(4 bytes @ 0xE0001000)
T1C64 000:449.710 - 2.818ms
T1C64 000:449.723 JLINK_IsHalted()
T1C64 000:449.965 - 0.248ms returns FALSE
T1C64 000:449.976 JLINK_HasError()
T1C64 000:452.881 JLINK_IsHalted()
T1C64 000:453.344 - 0.469ms returns FALSE
T1C64 000:453.357 JLINK_HasError()
T1C64 000:454.711 JLINK_IsHalted()
T1C64 000:455.024 - 0.318ms returns FALSE
T1C64 000:455.034 JLINK_HasError()
T1C64 000:456.328 JLINK_IsHalted()
T1C64 000:456.689 - 0.366ms returns FALSE
T1C64 000:456.700 JLINK_HasError()
T1C64 000:458.697 JLINK_IsHalted()
T1C64 000:459.023 - 0.336ms returns FALSE
T1C64 000:459.040 JLINK_HasError()
T1C64 000:460.608 JLINK_IsHalted()
T1C64 000:460.974 - 0.387ms returns FALSE
T1C64 000:461.004 JLINK_HasError()
T1C64 000:462.338 JLINK_IsHalted()
T1C64 000:462.631 - 0.303ms returns FALSE
T1C64 000:462.648 JLINK_HasError()
T1C64 000:464.616 JLINK_IsHalted()
T1C64 000:464.995 - 0.390ms returns FALSE
T1C64 000:465.013 JLINK_HasError()
T1C64 000:466.287 JLINK_IsHalted()
T1C64 000:466.649 - 0.372ms returns FALSE
T1C64 000:466.667 JLINK_HasError()
T1C64 000:468.101 JLINK_IsHalted()
T1C64 000:468.474 - 0.383ms returns FALSE
T1C64 000:468.491 JLINK_HasError()
T1C64 000:469.839 JLINK_IsHalted()
T1C64 000:470.740 - 0.926ms returns FALSE
T1C64 000:470.777 JLINK_HasError()
T1C64 000:473.080 JLINK_IsHalted()
T1C64 000:473.404 - 0.336ms returns FALSE
T1C64 000:473.424 JLINK_HasError()
T1C64 000:474.810 JLINK_IsHalted()
T1C64 000:475.200 - 0.408ms returns FALSE
T1C64 000:475.228 JLINK_HasError()
T1C64 000:479.900 JLINK_IsHalted()
T1C64 000:480.252 - 0.360ms returns FALSE
T1C64 000:480.268 JLINK_HasError()
T1C64 000:481.879 JLINK_IsHalted()
T1C64 000:483.760   CPU_ReadMem(2 bytes @ 0x20000200)
T1C64 000:484.130 - 2.262ms returns TRUE
T1C64 000:484.149 JLINK_ReadReg(R15 (PC))
T1C64 000:484.165 - 0.019ms returns 0x20000200
T1C64 000:484.173 JLINK_ClrBPEx(BPHandle = 0x00000005)
T1C64 000:484.181 - 0.011ms returns 0x00
T1C64 000:484.189 JLINK_ReadReg(R0)
T1C64 000:484.196 - 0.010ms returns 0x00000000
T1C64 000:538.376 JLINK_HasError()
T1C64 000:538.407 JLINK_WriteReg(R0, 0x00000001)
T1C64 000:538.419 - 0.014ms returns 0
T1C64 000:538.426 JLINK_WriteReg(R1, 0x00B71B00)
T1C64 000:538.433 - 0.010ms returns 0
T1C64 000:538.440 JLINK_WriteReg(R2, 0x00000001)
T1C64 000:538.447 - 0.009ms returns 0
T1C64 000:538.454 JLINK_WriteReg(R3, 0x00000000)
T1C64 000:538.460 - 0.009ms returns 0
T1C64 000:538.468 JLINK_WriteReg(R4, 0x00000000)
T1C64 000:538.475 - 0.009ms returns 0
T1C64 000:538.482 JLINK_WriteReg(R5, 0x00000000)
T1C64 000:538.488 - 0.009ms returns 0
T1C64 000:538.495 JLINK_WriteReg(R6, 0x00000000)
T1C64 000:538.501 - 0.009ms returns 0
T1C64 000:538.508 JLINK_WriteReg(R7, 0x00000000)
T1C64 000:538.514 - 0.009ms returns 0
T1C64 000:538.521 JLINK_WriteReg(R8, 0x00000000)
T1C64 000:538.528 - 0.009ms returns 0
T1C64 000:538.534 JLINK_WriteReg(R9, 0x20000318)
T1C64 000:538.541 - 0.009ms returns 0
T1C64 000:538.548 JLINK_WriteReg(R10, 0x00000000)
T1C64 000:538.554 - 0.009ms returns 0
T1C64 000:538.561 JLINK_WriteReg(R11, 0x00000000)
T1C64 000:538.567 - 0.009ms returns 0
T1C64 000:538.574 JLINK_WriteReg(R12, 0x00000000)
T1C64 000:538.581 - 0.009ms returns 0
T1C64 000:538.587 JLINK_WriteReg(R13 (SP), 0x20001200)
T1C64 000:538.595 - 0.010ms returns 0
T1C64 000:538.601 JLINK_WriteReg(R14, 0x20000201)
T1C64 000:538.608 - 0.009ms returns 0
T1C64 000:538.615 JLINK_WriteReg(R15 (PC), 0x20000246)
T1C64 000:538.621 - 0.009ms returns 0
T1C64 000:538.628 JLINK_WriteReg(XPSR, 0x01000000)
T1C64 000:538.635 - 0.009ms returns 0
T1C64 000:538.641 JLINK_WriteReg(MSP, 0x20001200)
T1C64 000:538.648 - 0.009ms returns 0
T1C64 000:538.655 JLINK_WriteReg(PSP, 0x20001200)
T1C64 000:538.661 - 0.009ms returns 0
T1C64 000:538.668 JLINK_WriteReg(CFBP, 0x00000000)
T1C64 000:538.674 - 0.009ms returns 0
T1C64 000:538.681 JLINK_SetBPEx(Addr = 0x20000200, Type = 0xFFFFFFF2)
T1C64 000:538.689 - 0.010ms returns 0x00000006
T1C64 000:538.696 JLINK_Go()
T1C64 000:538.710   CPU_ReadMem(4 bytes @ 0xE0001000)
T1C64 000:538.995   CPU_WriteMem(4 bytes @ 0xE0001000)
T1C64 000:541.232 - 2.592ms
T1C64 000:541.339 JLINK_IsHalted()
T1C64 000:543.865   CPU_ReadMem(2 bytes @ 0x20000200)
T1C64 000:544.566 - 3.273ms returns TRUE
T1C64 000:544.645 JLINK_ReadReg(R15 (PC))
T1C64 000:544.691 - 0.062ms returns 0x20000200
T1C64 000:544.728 JLINK_ClrBPEx(BPHandle = 0x00000006)
T1C64 000:544.763 - 0.051ms returns 0x00
T1C64 000:544.799 JLINK_ReadReg(R0)
T1C64 000:544.831 - 0.071ms returns 0x00000000
T1C64 000:564.626 JLINK_WriteMem(0x20000200, 0x11C Bytes, ...)
T1C64 000:564.701   Data:  00 BE 0A E0 0D 78 2D 06 68 40 08 24 40 00 00 D3 ...
T1C64 000:564.788   CPU_WriteMem(284 bytes @ 0x20000200)
T1C64 000:566.382 - 1.790ms returns 0x11C
T1C64 000:566.509 JLINK_HasError()
T1C64 000:566.541 JLINK_WriteReg(R0, 0x00000000)
T1C64 000:566.570 - 0.040ms returns 0
T1C64 000:566.595 JLINK_WriteReg(R1, 0x00B71B00)
T1C64 000:566.617 - 0.032ms returns 0
T1C64 000:566.640 JLINK_WriteReg(R2, 0x00000002)
T1C64 000:566.662 - 0.032ms returns 0
T1C64 000:566.685 JLINK_WriteReg(R3, 0x00000000)
T1C64 000:566.706 - 0.031ms returns 0
T1C64 000:566.729 JLINK_WriteReg(R4, 0x00000000)
T1C64 000:566.751 - 0.031ms returns 0
T1C64 000:566.773 JLINK_WriteReg(R5, 0x00000000)
T1C64 000:566.795 - 0.031ms returns 0
T1C64 000:566.818 JLINK_WriteReg(R6, 0x00000000)
T1C64 000:566.839 - 0.031ms returns 0
T1C64 000:566.861 JLINK_WriteReg(R7, 0x00000000)
T1C64 000:566.883 - 0.031ms returns 0
T1C64 000:566.905 JLINK_WriteReg(R8, 0x00000000)
T1C64 000:566.927 - 0.032ms returns 0
T1C64 000:566.950 JLINK_WriteReg(R9, 0x20000318)
T1C64 000:566.971 - 0.032ms returns 0
T1C64 000:566.994 JLINK_WriteReg(R10, 0x00000000)
T1C64 000:567.016 - 0.032ms returns 0
T1C64 000:567.039 JLINK_WriteReg(R11, 0x00000000)
T1C64 000:567.060 - 0.031ms returns 0
T1C64 000:567.083 JLINK_WriteReg(R12, 0x00000000)
T1C64 000:567.104 - 0.031ms returns 0
T1C64 000:567.127 JLINK_WriteReg(R13 (SP), 0x20001200)
T1C64 000:567.150 - 0.033ms returns 0
T1C64 000:567.173 JLINK_WriteReg(R14, 0x20000201)
T1C64 000:567.194 - 0.031ms returns 0
T1C64 000:567.217 JLINK_WriteReg(R15 (PC), 0x20000238)
T1C64 000:567.239 - 0.032ms returns 0
T1C64 000:567.261 JLINK_WriteReg(XPSR, 0x01000000)
T1C64 000:567.283 - 0.031ms returns 0
T1C64 000:567.306 JLINK_WriteReg(MSP, 0x20001200)
T1C64 000:567.327 - 0.035ms returns 0
T1C64 000:567.366 JLINK_WriteReg(PSP, 0x20001200)
T1C64 000:567.388 - 0.032ms returns 0
T1C64 000:567.411 JLINK_WriteReg(CFBP, 0x00000000)
T1C64 000:567.432 - 0.031ms returns 0
T1C64 000:567.456 JLINK_SetBPEx(Addr = 0x20000200, Type = 0xFFFFFFF2)
T1C64 000:567.491   CPU_ReadMem(4 bytes @ 0x20000200)
T1C64 000:568.535   CPU_WriteMem(4 bytes @ 0x20000200)
T1C64 000:568.945   CPU_ReadMem(4 bytes @ 0x20000200)
T1C64 000:569.530   CPU_WriteMem(4 bytes @ 0x20000200)
T1C64 000:569.985   CPU_ReadMem(2 bytes @ 0x20000200)
T1C64 000:570.453 - 3.033ms returns 0x00000007
T1C64 000:570.510 JLINK_Go()
T1C64 000:570.542   CPU_WriteMem(2 bytes @ 0x20000200)
T1C64 000:571.049   CPU_ReadMem(4 bytes @ 0xE0001000)
T1C64 000:571.503   CPU_WriteMem(4 bytes @ 0xE0001000)
T1C64 000:574.153 - 3.674ms
T1C64 000:574.203 JLINK_IsHalted()
T1C64 000:576.254   CPU_ReadMem(2 bytes @ 0x20000200)
T1C64 000:576.706 - 2.539ms returns TRUE
T1C64 000:576.764 JLINK_ReadReg(R15 (PC))
T1C64 000:576.794 - 0.041ms returns 0x20000200
T1C64 000:576.819 JLINK_ClrBPEx(BPHandle = 0x00000007)
T1C64 000:576.842 - 0.033ms returns 0x00
T1C64 000:576.866 JLINK_ReadReg(R0)
T1C64 000:576.889 - 0.033ms returns 0x00000000
T1C64 000:577.745 JLINK_WriteMem(0x2000031C, 0xE4 Bytes, ...)
T1C64 000:577.799   Data:  90 62 00 20 E9 01 00 00 6D 2A 00 00 39 02 00 20 ...
T1C64 000:577.851   CPU_WriteMem(228 bytes @ 0x2000031C)
T1C64 000:579.189 - 1.475ms returns 0xE4
T1C64 000:579.241 JLINK_WriteMem(0x20000400, 0x11C Bytes, ...)
T1C64 000:579.265   Data:  75 06 00 20 03 B4 01 48 01 90 01 BD 41 09 00 20 ...
T1C64 000:579.313   CPU_WriteMem(284 bytes @ 0x20000400)
T1C64 000:580.860 - 1.659ms returns 0x11C
T1C64 000:580.934 JLINK_HasError()
T1C64 000:580.962 JLINK_WriteReg(R0, 0x00000000)
T1C64 000:581.000 - 0.049ms returns 0
T1C64 000:581.029 JLINK_WriteReg(R1, 0x00000200)
T1C64 000:581.052 - 0.034ms returns 0
T1C64 000:581.079 JLINK_WriteReg(R2, 0x2000031C)
T1C64 000:581.101 - 0.032ms returns 0
T1C64 000:581.124 JLINK_WriteReg(R3, 0x00000000)
T1C64 000:581.146 - 0.032ms returns 0
T1C64 000:581.172 JLINK_WriteReg(R4, 0x00000000)
T1C64 000:581.194 - 0.032ms returns 0
T1C64 000:581.220 JLINK_WriteReg(R5, 0x00000000)
T1C64 000:581.273 - 0.070ms returns 0
T1C64 000:581.316 JLINK_WriteReg(R6, 0x00000000)
T1C64 000:581.370 - 0.071ms returns 0
T1C64 000:581.411 JLINK_WriteReg(R7, 0x00000000)
T1C64 000:581.445 - 0.050ms returns 0
T1C64 000:581.484 JLINK_WriteReg(R8, 0x00000000)
T1C64 000:581.519 - 0.053ms returns 0
T1C64 000:581.561 JLINK_WriteReg(R9, 0x20000318)
T1C64 000:581.597 - 0.051ms returns 0
T1C64 000:581.637 JLINK_WriteReg(R10, 0x00000000)
T1C64 000:581.672 - 0.051ms returns 0
T1C64 000:581.789 JLINK_WriteReg(R11, 0x00000000)
T1C64 000:581.833 - 0.059ms returns 0
T1C64 000:581.869 JLINK_WriteReg(R12, 0x00000000)
T1C64 000:581.906 - 0.057ms returns 0
T1C64 000:581.951 JLINK_WriteReg(R13 (SP), 0x20001200)
T1C64 000:581.997 - 0.065ms returns 0
T1C64 000:582.042 JLINK_WriteReg(R14, 0x20000201)
T1C64 000:582.084 - 0.063ms returns 0
T1C64 000:582.128 JLINK_WriteReg(R15 (PC), 0x200002CE)
T1C64 000:582.172 - 0.064ms returns 0
T1C64 000:582.220 JLINK_WriteReg(XPSR, 0x01000000)
T1C64 000:582.258 - 0.049ms returns 0
T1C64 000:582.283 JLINK_WriteReg(MSP, 0x20001200)
T1C64 000:582.305 - 0.032ms returns 0
T1C64 000:582.328 JLINK_WriteReg(PSP, 0x20001200)
T1C64 000:582.350 - 0.032ms returns 0
T1C64 000:582.373 JLINK_WriteReg(CFBP, 0x00000000)
T1C64 000:582.395 - 0.032ms returns 0
T1C64 000:582.418 JLINK_SetBPEx(Addr = 0x20000200, Type = 0xFFFFFFF2)
T1C64 000:582.445 - 0.037ms returns 0x00000008
T1C64 000:582.469 JLINK_Go()
T1C64 000:582.506   CPU_ReadMem(4 bytes @ 0xE0001000)
T1C64 000:582.883   CPU_WriteMem(4 bytes @ 0xE0001000)
T1C64 000:585.412 - 3.062ms
T1C64 000:585.561 JLINK_IsHalted()
T1C64 000:585.862 - 0.328ms returns FALSE
T1C64 000:585.905 JLINK_HasError()
T1C64 000:589.681 JLINK_IsHalted()
T1C64 000:590.048 - 0.376ms returns FALSE
T1C64 000:590.064 JLINK_HasError()
T1C64 000:591.657 JLINK_IsHalted()
T1C64 000:594.078   CPU_ReadMem(2 bytes @ 0x20000200)
T1C64 000:594.516 - 2.869ms returns TRUE
T1C64 000:594.535 JLINK_ReadReg(R15 (PC))
T1C64 000:594.546 - 0.014ms returns 0x20000200
T1C64 000:594.554 JLINK_ClrBPEx(BPHandle = 0x00000008)
T1C64 000:594.562 - 0.010ms returns 0x00
T1C64 000:594.569 JLINK_ReadReg(R0)
T1C64 000:594.576 - 0.010ms returns 0x00000000
T1C64 000:595.166 JLINK_WriteMem(0x2000031C, 0xE4 Bytes, ...)
T1C64 000:595.191   Data:  FE E7 FE E7 FE E7 FE E7 FE E7 FE E7 FE E7 FE E7 ...
T1C64 000:595.207   CPU_WriteMem(228 bytes @ 0x2000031C)
T1C64 000:596.458 - 1.316ms returns 0xE4
T1C64 000:596.488 JLINK_WriteMem(0x20000400, 0x11C Bytes, ...)
T1C64 000:596.496   Data:  8B 42 01 D3 4B 01 C0 1A 52 41 03 09 8B 42 01 D3 ...
T1C64 000:596.510   CPU_WriteMem(284 bytes @ 0x20000400)
T1C64 000:598.333 - 1.860ms returns 0x11C
T1C64 000:598.372 JLINK_HasError()
T1C64 000:598.403 JLINK_WriteReg(R0, 0x00000200)
T1C64 000:598.414 - 0.016ms returns 0
T1C64 000:598.427 JLINK_WriteReg(R1, 0x00000200)
T1C64 000:598.436 - 0.014ms returns 0
T1C64 000:598.447 JLINK_WriteReg(R2, 0x2000031C)
T1C64 000:598.495 - 0.053ms returns 0
T1C64 000:598.506 JLINK_WriteReg(R3, 0x00000000)
T1C64 000:598.531 - 0.028ms returns 0
T1C64 000:598.539 JLINK_WriteReg(R4, 0x00000000)
T1C64 000:598.545 - 0.010ms returns 0
T1C64 000:598.553 JLINK_WriteReg(R5, 0x00000000)
T1C64 000:598.559 - 0.010ms returns 0
T1C64 000:598.567 JLINK_WriteReg(R6, 0x00000000)
T1C64 000:598.574 - 0.010ms returns 0
T1C64 000:598.597 JLINK_WriteReg(R7, 0x00000000)
T1C64 000:598.603 - 0.009ms returns 0
T1C64 000:598.610 JLINK_WriteReg(R8, 0x00000000)
T1C64 000:598.616 - 0.013ms returns 0
T1C64 000:598.628 JLINK_WriteReg(R9, 0x20000318)
T1C64 000:598.635 - 0.009ms returns 0
T1C64 000:598.642 JLINK_WriteReg(R10, 0x00000000)
T1C64 000:598.669 - 0.030ms returns 0
T1C64 000:598.676 JLINK_WriteReg(R11, 0x00000000)
T1C64 000:598.683 - 0.010ms returns 0
T1C64 000:598.691 JLINK_WriteReg(R12, 0x00000000)
T1C64 000:598.697 - 0.010ms returns 0
T1C64 000:598.720 JLINK_WriteReg(R13 (SP), 0x20001200)
T1C64 000:598.727 - 0.010ms returns 0
T1C64 000:598.734 JLINK_WriteReg(R14, 0x20000201)
T1C64 000:598.741 - 0.009ms returns 0
T1C64 000:598.748 JLINK_WriteReg(R15 (PC), 0x200002CE)
T1C64 000:598.774 - 0.029ms returns 0
T1C64 000:598.782 JLINK_WriteReg(XPSR, 0x01000000)
T1C64 000:598.789 - 0.010ms returns 0
T1C64 000:598.796 JLINK_WriteReg(MSP, 0x20001200)
T1C64 000:598.803 - 0.010ms returns 0
T1C64 000:598.826 JLINK_WriteReg(PSP, 0x20001200)
T1C64 000:598.832 - 0.009ms returns 0
T1C64 000:598.839 JLINK_WriteReg(CFBP, 0x00000000)
T1C64 000:598.846 - 0.009ms returns 0
T1C64 000:598.853 JLINK_SetBPEx(Addr = 0x20000200, Type = 0xFFFFFFF2)
T1C64 000:598.860 - 0.038ms returns 0x00000009
T1C64 000:598.895 JLINK_Go()
T1C64 000:598.926   CPU_ReadMem(4 bytes @ 0xE0001000)
T1C64 000:599.363   CPU_WriteMem(4 bytes @ 0xE0001000)
T1C64 000:602.332 - 3.447ms
T1C64 000:602.349 JLINK_IsHalted()
T1C64 000:603.309 - 0.972ms returns FALSE
T1C64 000:603.328 JLINK_HasError()
T1C64 000:607.307 JLINK_IsHalted()
T1C64 000:609.710   CPU_ReadMem(2 bytes @ 0x20000200)
T1C64 000:610.109 - 2.828ms returns TRUE
T1C64 000:610.150 JLINK_ReadReg(R15 (PC))
T1C64 000:610.181 - 0.035ms returns 0x20000200
T1C64 000:610.192 JLINK_ClrBPEx(BPHandle = 0x00000009)
T1C64 000:610.200 - 0.012ms returns 0x00
T1C64 000:610.210 JLINK_ReadReg(R0)
T1C64 000:610.218 - 0.011ms returns 0x00000000
T1C64 000:610.774 JLINK_WriteMem(0x2000031C, 0xE4 Bytes, ...)
T1C64 000:610.809   Data:  10 43 16 4D 16 4C 0A 15 02 D0 20 43 00 2A 06 DB ...
T1C64 000:610.830   CPU_WriteMem(228 bytes @ 0x2000031C)
T1C64 000:612.154 - 1.392ms returns 0xE4
T1C64 000:612.174 JLINK_WriteMem(0x20000400, 0x11C Bytes, ...)
T1C64 000:612.183   Data:  40 00 52 1E D2 05 51 18 02 12 51 18 19 22 90 40 ...
T1C64 000:612.206   CPU_WriteMem(284 bytes @ 0x20000400)
T1C64 000:613.714 - 1.592ms returns 0x11C
T1C64 000:613.785 JLINK_HasError()
T1C64 000:613.800 JLINK_WriteReg(R0, 0x00000400)
T1C64 000:613.814 - 0.017ms returns 0
T1C64 000:613.822 JLINK_WriteReg(R1, 0x00000200)
T1C64 000:613.830 - 0.011ms returns 0
T1C64 000:613.838 JLINK_WriteReg(R2, 0x2000031C)
T1C64 000:613.845 - 0.010ms returns 0
T1C64 000:613.853 JLINK_WriteReg(R3, 0x00000000)
T1C64 000:613.860 - 0.010ms returns 0
T1C64 000:613.867 JLINK_WriteReg(R4, 0x00000000)
T1C64 000:613.875 - 0.011ms returns 0
T1C64 000:613.882 JLINK_WriteReg(R5, 0x00000000)
T1C64 000:613.890 - 0.010ms returns 0
T1C64 000:613.897 JLINK_WriteReg(R6, 0x00000000)
T1C64 000:613.904 - 0.010ms returns 0
T1C64 000:613.912 JLINK_WriteReg(R7, 0x00000000)
T1C64 000:613.919 - 0.010ms returns 0
T1C64 000:613.926 JLINK_WriteReg(R8, 0x00000000)
T1C64 000:613.934 - 0.011ms returns 0
T1C64 000:613.943 JLINK_WriteReg(R9, 0x20000318)
T1C64 000:613.950 - 0.010ms returns 0
T1C64 000:613.958 JLINK_WriteReg(R10, 0x00000000)
T1C64 000:613.964 - 0.010ms returns 0
T1C64 000:613.972 JLINK_WriteReg(R11, 0x00000000)
T1C64 000:613.979 - 0.011ms returns 0
T1C64 000:613.987 JLINK_WriteReg(R12, 0x00000000)
T1C64 000:613.994 - 0.010ms returns 0
T1C64 000:614.001 JLINK_WriteReg(R13 (SP), 0x20001200)
T1C64 000:614.009 - 0.011ms returns 0
T1C64 000:614.016 JLINK_WriteReg(R14, 0x20000201)
T1C64 000:614.023 - 0.010ms returns 0
T1C64 000:614.031 JLINK_WriteReg(R15 (PC), 0x200002CE)
T1C64 000:614.038 - 0.010ms returns 0
T1C64 000:614.046 JLINK_WriteReg(XPSR, 0x01000000)
T1C64 000:614.053 - 0.010ms returns 0
T1C64 000:614.060 JLINK_WriteReg(MSP, 0x20001200)
T1C64 000:614.067 - 0.010ms returns 0
T1C64 000:614.075 JLINK_WriteReg(PSP, 0x20001200)
T1C64 000:614.082 - 0.010ms returns 0
T1C64 000:614.089 JLINK_WriteReg(CFBP, 0x00000000)
T1C64 000:614.100 - 0.017ms returns 0
T1C64 000:614.111 JLINK_SetBPEx(Addr = 0x20000200, Type = 0xFFFFFFF2)
T1C64 000:614.121 - 0.013ms returns 0x0000000A
T1C64 000:614.130 JLINK_Go()
T1C64 000:614.151   CPU_ReadMem(4 bytes @ 0xE0001000)
T1C64 000:614.440   CPU_WriteMem(4 bytes @ 0xE0001000)
T1C64 000:617.858 - 3.752ms
T1C64 000:617.891 JLINK_IsHalted()
T1C64 000:618.354 - 0.487ms returns FALSE
T1C64 000:618.388 JLINK_HasError()
T1C64 000:619.782 JLINK_IsHalted()
T1C64 000:620.283 - 0.525ms returns FALSE
T1C64 000:620.317 JLINK_HasError()
T1C64 000:622.264 JLINK_IsHalted()
T1C64 000:622.619 - 0.365ms returns FALSE
T1C64 000:622.636 JLINK_HasError()
T1C64 000:624.590 JLINK_IsHalted()
T1C64 000:626.423   CPU_ReadMem(2 bytes @ 0x20000200)
T1C64 000:626.763 - 2.183ms returns TRUE
T1C64 000:626.783 JLINK_ReadReg(R15 (PC))
T1C64 000:626.793 - 0.013ms returns 0x20000200
T1C64 000:626.801 JLINK_ClrBPEx(BPHandle = 0x0000000A)
T1C64 000:626.810 - 0.011ms returns 0x00
T1C64 000:626.818 JLINK_ReadReg(R0)
T1C64 000:626.825 - 0.010ms returns 0x00000000
T1C64 000:627.334 JLINK_WriteMem(0x2000031C, 0xE4 Bytes, ...)
T1C64 000:627.358   Data:  01 D1 40 08 40 00 F0 BD 0B 03 13 43 07 D0 C9 0F ...
T1C64 000:627.376   CPU_WriteMem(228 bytes @ 0x2000031C)
T1C64 000:628.507 - 1.193ms returns 0xE4
T1C64 000:628.540 JLINK_WriteMem(0x20000400, 0x11C Bytes, ...)
T1C64 000:628.571   Data:  70 B5 14 48 81 7E 20 22 11 43 81 76 80 21 01 20 ...
T1C64 000:628.625   CPU_WriteMem(284 bytes @ 0x20000400)
T1C64 000:629.999 - 1.470ms returns 0x11C
T1C64 000:630.018 JLINK_HasError()
T1C64 000:630.027 JLINK_WriteReg(R0, 0x00000600)
T1C64 000:630.037 - 0.013ms returns 0
T1C64 000:630.045 JLINK_WriteReg(R1, 0x00000200)
T1C64 000:630.052 - 0.010ms returns 0
T1C64 000:630.060 JLINK_WriteReg(R2, 0x2000031C)
T1C64 000:630.067 - 0.011ms returns 0
T1C64 000:630.075 JLINK_WriteReg(R3, 0x00000000)
T1C64 000:630.082 - 0.010ms returns 0
T1C64 000:630.089 JLINK_WriteReg(R4, 0x00000000)
T1C64 000:630.096 - 0.010ms returns 0
T1C64 000:630.103 JLINK_WriteReg(R5, 0x00000000)
T1C64 000:630.111 - 0.010ms returns 0
T1C64 000:630.118 JLINK_WriteReg(R6, 0x00000000)
T1C64 000:630.125 - 0.010ms returns 0
T1C64 000:630.132 JLINK_WriteReg(R7, 0x00000000)
T1C64 000:630.139 - 0.010ms returns 0
T1C64 000:630.146 JLINK_WriteReg(R8, 0x00000000)
T1C64 000:630.155 - 0.012ms returns 0
T1C64 000:630.162 JLINK_WriteReg(R9, 0x20000318)
T1C64 000:630.169 - 0.010ms returns 0
T1C64 000:630.177 JLINK_WriteReg(R10, 0x00000000)
T1C64 000:630.184 - 0.010ms returns 0
T1C64 000:630.191 JLINK_WriteReg(R11, 0x00000000)
T1C64 000:630.198 - 0.010ms returns 0
T1C64 000:630.205 JLINK_WriteReg(R12, 0x00000000)
T1C64 000:630.212 - 0.010ms returns 0
T1C64 000:630.219 JLINK_WriteReg(R13 (SP), 0x20001200)
T1C64 000:630.227 - 0.011ms returns 0
T1C64 000:630.234 JLINK_WriteReg(R14, 0x20000201)
T1C64 000:630.242 - 0.010ms returns 0
T1C64 000:630.250 JLINK_WriteReg(R15 (PC), 0x200002CE)
T1C64 000:630.257 - 0.010ms returns 0
T1C64 000:630.264 JLINK_WriteReg(XPSR, 0x01000000)
T1C64 000:630.271 - 0.010ms returns 0
T1C64 000:630.278 JLINK_WriteReg(MSP, 0x20001200)
T1C64 000:630.285 - 0.010ms returns 0
T1C64 000:630.293 JLINK_WriteReg(PSP, 0x20001200)
T1C64 000:630.300 - 0.010ms returns 0
T1C64 000:630.307 JLINK_WriteReg(CFBP, 0x00000000)
T1C64 000:630.315 - 0.010ms returns 0
T1C64 000:630.322 JLINK_SetBPEx(Addr = 0x20000200, Type = 0xFFFFFFF2)
T1C64 000:630.330 - 0.011ms returns 0x0000000B
T1C64 000:630.338 JLINK_Go()
T1C64 000:630.351   CPU_ReadMem(4 bytes @ 0xE0001000)
T1C64 000:630.631   CPU_WriteMem(4 bytes @ 0xE0001000)
T1C64 000:632.495 - 2.164ms
T1C64 000:632.509 JLINK_IsHalted()
T1C64 000:632.709 - 0.210ms returns FALSE
T1C64 000:632.725 JLINK_HasError()
T1C64 000:634.667 JLINK_IsHalted()
T1C64 000:635.189 - 0.528ms returns FALSE
T1C64 000:635.200 JLINK_HasError()
T1C64 000:636.650 JLINK_IsHalted()
T1C64 000:637.016 - 0.371ms returns FALSE
T1C64 000:637.027 JLINK_HasError()
T1C64 000:638.055 JLINK_IsHalted()
T1C64 000:640.059   CPU_ReadMem(2 bytes @ 0x20000200)
T1C64 000:640.461 - 2.415ms returns TRUE
T1C64 000:640.477 JLINK_ReadReg(R15 (PC))
T1C64 000:640.487 - 0.013ms returns 0x20000200
T1C64 000:640.495 JLINK_ClrBPEx(BPHandle = 0x0000000B)
T1C64 000:640.503 - 0.010ms returns 0x00
T1C64 000:640.510 JLINK_ReadReg(R0)
T1C64 000:640.517 - 0.010ms returns 0x00000000
T1C64 000:640.922 JLINK_WriteMem(0x2000031C, 0xE4 Bytes, ...)
T1C64 000:640.934   Data:  A0 70 A0 78 08 21 08 43 A0 70 25 71 81 20 A0 71 ...
T1C64 000:640.949   CPU_WriteMem(228 bytes @ 0x2000031C)
T1C64 000:642.627 - 1.729ms returns 0xE4
T1C64 000:642.661 JLINK_WriteMem(0x20000400, 0x11C Bytes, ...)
T1C64 000:642.673   Data:  80 8D 5B 00 00 09 3D 00 C0 C6 2D 00 00 22 00 28 ...
T1C64 000:642.695   CPU_WriteMem(284 bytes @ 0x20000400)
T1C64 000:644.137 - 1.500ms returns 0x11C
T1C64 000:644.173 JLINK_HasError()
T1C64 000:644.184 JLINK_WriteReg(R0, 0x00000800)
T1C64 000:644.196 - 0.016ms returns 0
T1C64 000:644.204 JLINK_WriteReg(R1, 0x00000200)
T1C64 000:644.211 - 0.010ms returns 0
T1C64 000:644.219 JLINK_WriteReg(R2, 0x2000031C)
T1C64 000:644.226 - 0.010ms returns 0
T1C64 000:644.233 JLINK_WriteReg(R3, 0x00000000)
T1C64 000:644.240 - 0.010ms returns 0
T1C64 000:644.247 JLINK_WriteReg(R4, 0x00000000)
T1C64 000:644.254 - 0.010ms returns 0
T1C64 000:644.262 JLINK_WriteReg(R5, 0x00000000)
T1C64 000:644.268 - 0.010ms returns 0
T1C64 000:644.276 JLINK_WriteReg(R6, 0x00000000)
T1C64 000:644.283 - 0.010ms returns 0
T1C64 000:644.290 JLINK_WriteReg(R7, 0x00000000)
T1C64 000:644.297 - 0.010ms returns 0
T1C64 000:644.304 JLINK_WriteReg(R8, 0x00000000)
T1C64 000:644.311 - 0.010ms returns 0
T1C64 000:644.318 JLINK_WriteReg(R9, 0x20000318)
T1C64 000:644.325 - 0.010ms returns 0
T1C64 000:644.332 JLINK_WriteReg(R10, 0x00000000)
T1C64 000:644.339 - 0.010ms returns 0
T1C64 000:644.347 JLINK_WriteReg(R11, 0x00000000)
T1C64 000:644.354 - 0.010ms returns 0
T1C64 000:644.361 JLINK_WriteReg(R12, 0x00000000)
T1C64 000:644.368 - 0.010ms returns 0
T1C64 000:644.375 JLINK_WriteReg(R13 (SP), 0x20001200)
T1C64 000:644.383 - 0.011ms returns 0
T1C64 000:644.390 JLINK_WriteReg(R14, 0x20000201)
T1C64 000:644.397 - 0.010ms returns 0
T1C64 000:644.404 JLINK_WriteReg(R15 (PC), 0x200002CE)
T1C64 000:644.411 - 0.010ms returns 0
T1C64 000:644.418 JLINK_WriteReg(XPSR, 0x01000000)
T1C64 000:644.425 - 0.010ms returns 0
T1C64 000:644.433 JLINK_WriteReg(MSP, 0x20001200)
T1C64 000:644.439 - 0.010ms returns 0
T1C64 000:644.447 JLINK_WriteReg(PSP, 0x20001200)
T1C64 000:644.454 - 0.010ms returns 0
T1C64 000:644.461 JLINK_WriteReg(CFBP, 0x00000000)
T1C64 000:644.468 - 0.010ms returns 0
T1C64 000:644.475 JLINK_SetBPEx(Addr = 0x20000200, Type = 0xFFFFFFF2)
T1C64 000:644.483 - 0.011ms returns 0x0000000C
T1C64 000:644.491 JLINK_Go()
T1C64 000:644.526   CPU_ReadMem(4 bytes @ 0xE0001000)
T1C64 000:644.826   CPU_WriteMem(4 bytes @ 0xE0001000)
T1C64 000:647.959 - 3.491ms
T1C64 000:647.992 JLINK_IsHalted()
T1C64 000:648.340 - 0.359ms returns FALSE
T1C64 000:648.359 JLINK_HasError()
T1C64 000:649.737 JLINK_IsHalted()
T1C64 000:650.186 - 0.473ms returns FALSE
T1C64 000:650.218 JLINK_HasError()
T1C64 000:651.724 JLINK_IsHalted()
T1C64 000:652.069 - 0.364ms returns FALSE
T1C64 000:652.102 JLINK_HasError()
T1C64 000:653.253 JLINK_IsHalted()
T1C64 000:655.361   CPU_ReadMem(2 bytes @ 0x20000200)
T1C64 000:655.775 - 2.536ms returns TRUE
T1C64 000:655.797 JLINK_ReadReg(R15 (PC))
T1C64 000:655.809 - 0.015ms returns 0x20000200
T1C64 000:655.817 JLINK_ClrBPEx(BPHandle = 0x0000000C)
T1C64 000:655.825 - 0.011ms returns 0x00
T1C64 000:655.833 JLINK_ReadReg(R0)
T1C64 000:655.840 - 0.010ms returns 0x00000000
T1C64 000:656.302 JLINK_WriteMem(0x2000031C, 0xE4 Bytes, ...)
T1C64 000:656.322   Data:  00 D0 11 71 80 07 00 D5 51 71 70 47 40 38 04 40 ...
T1C64 000:656.342   CPU_WriteMem(228 bytes @ 0x2000031C)
T1C64 000:657.979 - 1.701ms returns 0xE4
T1C64 000:658.013 JLINK_WriteMem(0x20000400, 0x11C Bytes, ...)
T1C64 000:658.021   Data:  07 B0 F0 BD FC 23 00 20 DC 24 00 20 74 23 00 20 ...
T1C64 000:658.061   CPU_WriteMem(284 bytes @ 0x20000400)
T1C64 000:659.854 - 1.892ms returns 0x11C
T1C64 000:659.921 JLINK_HasError()
T1C64 000:659.935 JLINK_WriteReg(R0, 0x00000A00)
T1C64 000:659.947 - 0.015ms returns 0
T1C64 000:659.955 JLINK_WriteReg(R1, 0x00000200)
T1C64 000:659.963 - 0.011ms returns 0
T1C64 000:659.971 JLINK_WriteReg(R2, 0x2000031C)
T1C64 000:659.979 - 0.011ms returns 0
T1C64 000:659.986 JLINK_WriteReg(R3, 0x00000000)
T1C64 000:659.995 - 0.012ms returns 0
T1C64 000:660.004 JLINK_WriteReg(R4, 0x00000000)
T1C64 000:660.011 - 0.012ms returns 0
T1C64 000:660.020 JLINK_WriteReg(R5, 0x00000000)
T1C64 000:660.027 - 0.010ms returns 0
T1C64 000:660.034 JLINK_WriteReg(R6, 0x00000000)
T1C64 000:660.042 - 0.010ms returns 0
T1C64 000:660.049 JLINK_WriteReg(R7, 0x00000000)
T1C64 000:660.056 - 0.010ms returns 0
T1C64 000:660.063 JLINK_WriteReg(R8, 0x00000000)
T1C64 000:660.070 - 0.010ms returns 0
T1C64 000:660.078 JLINK_WriteReg(R9, 0x20000318)
T1C64 000:660.087 - 0.016ms returns 0
T1C64 000:660.098 JLINK_WriteReg(R10, 0x00000000)
T1C64 000:660.106 - 0.010ms returns 0
T1C64 000:660.113 JLINK_WriteReg(R11, 0x00000000)
T1C64 000:660.120 - 0.010ms returns 0
T1C64 000:660.128 JLINK_WriteReg(R12, 0x00000000)
T1C64 000:660.136 - 0.011ms returns 0
T1C64 000:660.144 JLINK_WriteReg(R13 (SP), 0x20001200)
T1C64 000:660.155 - 0.016ms returns 0
T1C64 000:660.166 JLINK_WriteReg(R14, 0x20000201)
T1C64 000:660.174 - 0.011ms returns 0
T1C64 000:660.181 JLINK_WriteReg(R15 (PC), 0x200002CE)
T1C64 000:660.190 - 0.012ms returns 0
T1C64 000:660.198 JLINK_WriteReg(XPSR, 0x01000000)
T1C64 000:660.206 - 0.011ms returns 0
T1C64 000:660.214 JLINK_WriteReg(MSP, 0x20001200)
T1C64 000:660.222 - 0.017ms returns 0
T1C64 000:660.241 JLINK_WriteReg(PSP, 0x20001200)
T1C64 000:660.261 - 0.029ms returns 0
T1C64 000:660.281 JLINK_WriteReg(CFBP, 0x00000000)
